
Circuit: STEPS deck from "nand:symbolic:contents;"

Circuit: STEPS deck from "nand:symbolic:contents;"
Date: Wed Sep 18 16:59:54  1991



Operating point information:

	Node	Voltage
	----	-------
	out	5.000000e+00
	b	0.000000e+00
	a	5.000000e+00

	Source	Current
	------	-------


                   STEPS deck from "nand:symbolic:contents;"
                   transient  Wed Sep 18 16:59:53  1991
--------------------------------------------------------------------------------
Index   time            a               b               out             
--------------------------------------------------------------------------------
0	0.000000e+00	0.000000e+00	0.000000e+00	5.000000e+00	
1	1.000000e-11	5.000000e-02	5.000000e-02	5.000000e+00	
2	2.000000e-11	1.000000e-01	1.000000e-01	5.000000e+00	
3	4.000000e-11	2.000000e-01	2.000000e-01	5.000000e+00	
4	8.000000e-11	4.000000e-01	4.000000e-01	5.000000e+00	
5	1.600000e-10	8.000000e-01	8.000000e-01	5.000000e+00	
6	3.200000e-10	1.600000e+00	1.600000e+00	4.975331e+00	
7	6.400000e-10	3.200000e+00	3.200000e+00	4.417081e+00	
8	1.163297e-09	5.000000e+00	5.000000e+00	1.550354e+00	
9	1.563653e-09	5.000000e+00	5.000000e+00	-2.763858e-03	
10	1.699778e-09	5.000000e+00	5.000000e+00	-1.132380e-03	
11	1.802948e-09	5.000000e+00	5.000000e+00	-5.868425e-04	
12	1.925272e-09	5.000000e+00	5.000000e+00	-2.659913e-04	
13	2.169920e-09	5.000000e+00	5.000000e+00	-3.755759e-05	
14	2.659217e-09	5.000000e+00	5.000000e+00	7.600814e-06	
15	3.637810e-09	5.000000e+00	5.000000e+00	-3.754654e-06	
16	4.637810e-09	5.000000e+00	5.000000e+00	1.982249e-06	
17	5.637810e-09	5.000000e+00	5.000000e+00	-9.382920e-07	
18	6.637810e-09	5.000000e+00	5.000000e+00	5.489902e-07	
19	7.637810e-09	5.000000e+00	5.000000e+00	-2.083876e-07	
20	8.637810e-09	5.000000e+00	5.000000e+00	1.773013e-07	
21	9.637810e-09	5.000000e+00	5.000000e+00	-1.910659e-08	
22	1.063781e-08	5.000000e+00	5.000000e+00	8.091230e-08	
23	1.163781e-08	5.000000e+00	5.000000e+00	2.997868e-08	
24	1.263781e-08	5.000000e+00	5.000000e+00	5.591614e-08	
25	1.363781e-08	5.000000e+00	5.000000e+00	4.270775e-08	
26	1.463781e-08	5.000000e+00	5.000000e+00	4.943399e-08	
27	1.563781e-08	5.000000e+00	5.000000e+00	4.600872e-08	
28	1.663781e-08	5.000000e+00	5.000000e+00	4.775300e-08	
29	1.763781e-08	5.000000e+00	5.000000e+00	4.686474e-08	
30	1.863781e-08	5.000000e+00	5.000000e+00	4.731708e-08	
31	1.963781e-08	5.000000e+00	5.000000e+00	4.708673e-08	
32	2.063781e-08	5.000000e+00	5.000000e+00	4.720404e-08	
33	2.163781e-08	5.000000e+00	5.000000e+00	4.714430e-08	
34	2.263781e-08	5.000000e+00	5.000000e+00	4.717472e-08	
35	2.363781e-08	5.000000e+00	5.000000e+00	4.715923e-08	
36	2.463781e-08	5.000000e+00	5.000000e+00	4.716712e-08	
37	2.563781e-08	5.000000e+00	5.000000e+00	4.716310e-08	
38	2.663781e-08	5.000000e+00	5.000000e+00	4.716515e-08	
39	2.763781e-08	5.000000e+00	5.000000e+00	4.716410e-08	
40	2.863781e-08	5.000000e+00	5.000000e+00	4.716463e-08	
41	2.963781e-08	5.000000e+00	5.000000e+00	4.716436e-08	
42	3.063781e-08	5.000000e+00	5.000000e+00	4.716450e-08	
43	3.163781e-08	5.000000e+00	5.000000e+00	4.716443e-08	
44	3.263781e-08	5.000000e+00	5.000000e+00	4.716447e-08	
45	3.363781e-08	5.000000e+00	5.000000e+00	4.716445e-08	
46	3.463781e-08	5.000000e+00	5.000000e+00	4.716446e-08	
47	3.563781e-08	5.000000e+00	5.000000e+00	4.716445e-08	
48	3.663781e-08	5.000000e+00	5.000000e+00	4.716446e-08	
49	3.763781e-08	5.000000e+00	5.000000e+00	4.716446e-08	
50	3.863781e-08	5.000000e+00	5.000000e+00	4.716446e-08	
51	3.963781e-08	5.000000e+00	5.000000e+00	4.716446e-08	
52	4.063781e-08	5.000000e+00	5.000000e+00	4.716446e-08	
53	4.163781e-08	5.000000e+00	5.000000e+00	4.716446e-08	
54	4.263781e-08	5.000000e+00	5.000000e+00	4.716446e-08	

Index   time            a               b               out             
--------------------------------------------------------------------------------
55	4.363781e-08	5.000000e+00	5.000000e+00	4.716446e-08	
56	4.463781e-08	5.000000e+00	5.000000e+00	4.716446e-08	
57	4.563781e-08	5.000000e+00	5.000000e+00	4.716446e-08	
58	4.663781e-08	5.000000e+00	5.000000e+00	4.716446e-08	
59	4.763781e-08	5.000000e+00	5.000000e+00	4.716446e-08	
60	4.863781e-08	5.000000e+00	5.000000e+00	4.716446e-08	
61	4.963781e-08	5.000000e+00	5.000000e+00	4.716446e-08	
62	5.063781e-08	5.000000e+00	5.000000e+00	4.716446e-08	
63	5.163781e-08	5.000000e+00	1.810951e+00	1.183628e+00	
64	5.263781e-08	5.000000e+00	0.000000e+00	4.223945e+00	
65	5.347208e-08	5.000000e+00	0.000000e+00	5.237234e+00	
66	5.435351e-08	5.000000e+00	0.000000e+00	4.900256e+00	
67	5.535351e-08	5.000000e+00	0.000000e+00	5.043913e+00	
68	5.632854e-08	5.000000e+00	0.000000e+00	4.980548e+00	
69	5.732854e-08	5.000000e+00	0.000000e+00	5.008714e+00	
70	5.832854e-08	5.000000e+00	0.000000e+00	4.996071e+00	
71	5.932854e-08	5.000000e+00	0.000000e+00	5.001766e+00	
72	6.032854e-08	5.000000e+00	0.000000e+00	4.999205e+00	
73	6.132854e-08	5.000000e+00	0.000000e+00	5.000358e+00	
74	6.232854e-08	5.000000e+00	0.000000e+00	4.999839e+00	
75	6.332854e-08	5.000000e+00	0.000000e+00	5.000073e+00	
76	6.432854e-08	5.000000e+00	0.000000e+00	4.999967e+00	
77	6.532854e-08	5.000000e+00	0.000000e+00	5.000015e+00	
78	6.632854e-08	5.000000e+00	0.000000e+00	4.999993e+00	
79	6.732854e-08	5.000000e+00	0.000000e+00	5.000003e+00	
80	6.832854e-08	5.000000e+00	0.000000e+00	4.999999e+00	
81	6.932854e-08	5.000000e+00	0.000000e+00	5.000001e+00	
82	7.032854e-08	5.000000e+00	0.000000e+00	5.000000e+00	
83	7.132854e-08	5.000000e+00	0.000000e+00	5.000000e+00	
84	7.232854e-08	5.000000e+00	0.000000e+00	5.000000e+00	
85	7.332854e-08	5.000000e+00	0.000000e+00	5.000000e+00	
86	7.432854e-08	5.000000e+00	0.000000e+00	5.000000e+00	
87	7.532854e-08	5.000000e+00	0.000000e+00	5.000000e+00	
88	7.632854e-08	5.000000e+00	0.000000e+00	5.000000e+00	
89	7.732854e-08	5.000000e+00	0.000000e+00	5.000000e+00	
90	7.832854e-08	5.000000e+00	0.000000e+00	5.000000e+00	
91	7.932854e-08	5.000000e+00	0.000000e+00	5.000000e+00	
92	8.032854e-08	5.000000e+00	0.000000e+00	5.000000e+00	
93	8.132854e-08	5.000000e+00	0.000000e+00	5.000000e+00	
94	8.232854e-08	5.000000e+00	0.000000e+00	5.000000e+00	
95	8.332854e-08	5.000000e+00	0.000000e+00	5.000000e+00	
96	8.432854e-08	5.000000e+00	0.000000e+00	5.000000e+00	
97	8.532854e-08	5.000000e+00	0.000000e+00	5.000000e+00	
98	8.632854e-08	5.000000e+00	0.000000e+00	5.000000e+00	
99	8.732854e-08	5.000000e+00	0.000000e+00	5.000000e+00	
100	8.832854e-08	5.000000e+00	0.000000e+00	5.000000e+00	
101	8.932854e-08	5.000000e+00	0.000000e+00	5.000000e+00	
102	9.032854e-08	5.000000e+00	0.000000e+00	5.000000e+00	
103	9.132854e-08	5.000000e+00	0.000000e+00	5.000000e+00	
104	9.232854e-08	5.000000e+00	0.000000e+00	5.000000e+00	
105	9.332854e-08	5.000000e+00	0.000000e+00	5.000000e+00	
106	9.432854e-08	5.000000e+00	0.000000e+00	5.000000e+00	
107	9.532854e-08	5.000000e+00	0.000000e+00	5.000000e+00	
108	9.632854e-08	5.000000e+00	0.000000e+00	5.000000e+00	
109	9.732854e-08	5.000000e+00	0.000000e+00	5.000000e+00	
110	9.832854e-08	5.000000e+00	0.000000e+00	5.000000e+00	
111	9.932854e-08	5.000000e+00	0.000000e+00	5.000000e+00	
112	1.003285e-07	5.000000e+00	1.642725e+00	4.829346e+00	

Index   time            a               b               out             
--------------------------------------------------------------------------------
113	1.013285e-07	3.357275e+00	5.000000e+00	1.791396e+00	
114	1.020875e-07	0.000000e+00	5.000000e+00	2.832563e+00	
115	1.027936e-07	0.000000e+00	5.000000e+00	5.282486e+00	
116	1.028093e-07	0.000000e+00	5.000000e+00	5.260373e+00	
117	1.028405e-07	0.000000e+00	5.000000e+00	5.219690e+00	
118	1.029030e-07	0.000000e+00	5.000000e+00	5.156317e+00	
119	1.030280e-07	0.000000e+00	5.000000e+00	5.077935e+00	
120	1.032780e-07	0.000000e+00	5.000000e+00	5.015720e+00	
121	1.037780e-07	0.000000e+00	5.000000e+00	4.997826e+00	
122	1.047780e-07	0.000000e+00	5.000000e+00	5.000977e+00	
123	1.057780e-07	0.000000e+00	5.000000e+00	4.999560e+00	
124	1.067780e-07	0.000000e+00	5.000000e+00	5.000198e+00	
125	1.077780e-07	0.000000e+00	5.000000e+00	4.999911e+00	
126	1.087780e-07	0.000000e+00	5.000000e+00	5.000040e+00	
127	1.097780e-07	0.000000e+00	5.000000e+00	4.999982e+00	
128	1.107780e-07	0.000000e+00	5.000000e+00	5.000008e+00	
129	1.117780e-07	0.000000e+00	5.000000e+00	4.999996e+00	
130	1.127780e-07	0.000000e+00	5.000000e+00	5.000002e+00	
131	1.137780e-07	0.000000e+00	5.000000e+00	4.999999e+00	
132	1.147780e-07	0.000000e+00	5.000000e+00	5.000000e+00	
133	1.157780e-07	0.000000e+00	5.000000e+00	5.000000e+00	
134	1.167780e-07	0.000000e+00	5.000000e+00	5.000000e+00	
135	1.177780e-07	0.000000e+00	5.000000e+00	5.000000e+00	
136	1.187780e-07	0.000000e+00	5.000000e+00	5.000000e+00	
137	1.197780e-07	0.000000e+00	5.000000e+00	5.000000e+00	
138	1.207780e-07	0.000000e+00	5.000000e+00	5.000000e+00	
139	1.217780e-07	0.000000e+00	5.000000e+00	5.000000e+00	
140	1.227780e-07	0.000000e+00	5.000000e+00	5.000000e+00	
141	1.237780e-07	0.000000e+00	5.000000e+00	5.000000e+00	
142	1.247780e-07	0.000000e+00	5.000000e+00	5.000000e+00	
143	1.257780e-07	0.000000e+00	5.000000e+00	5.000000e+00	
144	1.267780e-07	0.000000e+00	5.000000e+00	5.000000e+00	
145	1.277780e-07	0.000000e+00	5.000000e+00	5.000000e+00	
146	1.287780e-07	0.000000e+00	5.000000e+00	5.000000e+00	
147	1.297780e-07	0.000000e+00	5.000000e+00	5.000000e+00	
148	1.307780e-07	0.000000e+00	5.000000e+00	5.000000e+00	
149	1.317780e-07	0.000000e+00	5.000000e+00	5.000000e+00	
150	1.327780e-07	0.000000e+00	5.000000e+00	5.000000e+00	
151	1.337780e-07	0.000000e+00	5.000000e+00	5.000000e+00	
152	1.347780e-07	0.000000e+00	5.000000e+00	5.000000e+00	
153	1.357780e-07	0.000000e+00	5.000000e+00	5.000000e+00	
154	1.367780e-07	0.000000e+00	5.000000e+00	5.000000e+00	
155	1.377780e-07	0.000000e+00	5.000000e+00	5.000000e+00	
156	1.387780e-07	0.000000e+00	5.000000e+00	5.000000e+00	
157	1.397780e-07	0.000000e+00	5.000000e+00	5.000000e+00	
158	1.407780e-07	0.000000e+00	5.000000e+00	5.000000e+00	
159	1.417780e-07	0.000000e+00	5.000000e+00	5.000000e+00	
160	1.427780e-07	0.000000e+00	5.000000e+00	5.000000e+00	
161	1.437780e-07	0.000000e+00	5.000000e+00	5.000000e+00	
162	1.447780e-07	0.000000e+00	5.000000e+00	5.000000e+00	
163	1.457780e-07	0.000000e+00	5.000000e+00	5.000000e+00	
164	1.467780e-07	0.000000e+00	5.000000e+00	5.000000e+00	
165	1.477780e-07	0.000000e+00	5.000000e+00	5.000000e+00	
166	1.487780e-07	0.000000e+00	5.000000e+00	5.000000e+00	
167	1.497780e-07	0.000000e+00	5.000000e+00	5.000000e+00	
168	1.507780e-07	0.000000e+00	5.000000e+00	5.000000e+00	
169	1.509030e-07	0.000000e+00	5.000000e+00	5.000000e+00	
170	1.511530e-07	0.000000e+00	4.234972e+00	5.000000e+00	

Index   time            a               b               out             
--------------------------------------------------------------------------------
171	1.516530e-07	0.000000e+00	1.734972e+00	5.000000e+00	
172	1.526530e-07	0.000000e+00	0.000000e+00	5.000000e+00	
173	1.527780e-07	0.000000e+00	0.000000e+00	5.000000e+00	
174	1.530280e-07	0.000000e+00	0.000000e+00	5.000000e+00	
175	1.535280e-07	0.000000e+00	0.000000e+00	5.000000e+00	
176	1.545280e-07	0.000000e+00	0.000000e+00	5.000000e+00	
177	1.555280e-07	0.000000e+00	0.000000e+00	5.000000e+00	
178	1.565280e-07	0.000000e+00	0.000000e+00	5.000000e+00	
179	1.575280e-07	0.000000e+00	0.000000e+00	5.000000e+00	
180	1.585280e-07	0.000000e+00	0.000000e+00	5.000000e+00	
181	1.595280e-07	0.000000e+00	0.000000e+00	5.000000e+00	
182	1.605280e-07	0.000000e+00	0.000000e+00	5.000000e+00	
183	1.615280e-07	0.000000e+00	0.000000e+00	5.000000e+00	
184	1.625280e-07	0.000000e+00	0.000000e+00	5.000000e+00	
185	1.635280e-07	0.000000e+00	0.000000e+00	5.000000e+00	
186	1.645280e-07	0.000000e+00	0.000000e+00	5.000000e+00	
187	1.655280e-07	0.000000e+00	0.000000e+00	5.000000e+00	
188	1.665280e-07	0.000000e+00	0.000000e+00	5.000000e+00	
189	1.675280e-07	0.000000e+00	0.000000e+00	5.000000e+00	
190	1.685280e-07	0.000000e+00	0.000000e+00	5.000000e+00	
191	1.695280e-07	0.000000e+00	0.000000e+00	5.000000e+00	
192	1.705280e-07	0.000000e+00	0.000000e+00	5.000000e+00	
193	1.715280e-07	0.000000e+00	0.000000e+00	5.000000e+00	
194	1.725280e-07	0.000000e+00	0.000000e+00	5.000000e+00	
195	1.735280e-07	0.000000e+00	0.000000e+00	5.000000e+00	
196	1.745280e-07	0.000000e+00	0.000000e+00	5.000000e+00	
197	1.755280e-07	0.000000e+00	0.000000e+00	5.000000e+00	
198	1.765280e-07	0.000000e+00	0.000000e+00	5.000000e+00	
199	1.775280e-07	0.000000e+00	0.000000e+00	5.000000e+00	
200	1.785280e-07	0.000000e+00	0.000000e+00	5.000000e+00	
201	1.795280e-07	0.000000e+00	0.000000e+00	5.000000e+00	
202	1.805280e-07	0.000000e+00	0.000000e+00	5.000000e+00	
203	1.815280e-07	0.000000e+00	0.000000e+00	5.000000e+00	
204	1.825280e-07	0.000000e+00	0.000000e+00	5.000000e+00	
205	1.835280e-07	0.000000e+00	0.000000e+00	5.000000e+00	
206	1.845280e-07	0.000000e+00	0.000000e+00	5.000000e+00	
207	1.855280e-07	0.000000e+00	0.000000e+00	5.000000e+00	
208	1.865280e-07	0.000000e+00	0.000000e+00	5.000000e+00	
209	1.875280e-07	0.000000e+00	0.000000e+00	5.000000e+00	
210	1.885280e-07	0.000000e+00	0.000000e+00	5.000000e+00	
211	1.895280e-07	0.000000e+00	0.000000e+00	5.000000e+00	
212	1.905280e-07	0.000000e+00	0.000000e+00	5.000000e+00	
213	1.915280e-07	0.000000e+00	0.000000e+00	5.000000e+00	
214	1.925280e-07	0.000000e+00	0.000000e+00	5.000000e+00	
215	1.935280e-07	0.000000e+00	0.000000e+00	5.000000e+00	
216	1.945280e-07	0.000000e+00	0.000000e+00	5.000000e+00	
217	1.955280e-07	0.000000e+00	0.000000e+00	5.000000e+00	
218	1.965280e-07	0.000000e+00	0.000000e+00	5.000000e+00	
219	1.975280e-07	0.000000e+00	0.000000e+00	5.000000e+00	
220	1.985280e-07	0.000000e+00	0.000000e+00	5.000000e+00	
221	1.995280e-07	0.000000e+00	0.000000e+00	5.000000e+00	
222	2.000000e-07	0.000000e+00	0.000000e+00	5.000000e+00	



Total run time: 1.136 seconds.

Current data size = 409600,
Data limits: hard = 100663296, soft = 100663296.

