
Circuit: STEPS deck from "nor:symbolic:contents;"

Circuit: STEPS deck from "nor:symbolic:contents;"
Date: Fri Sep 20 15:59:23  1991


                    STEPS deck from "nor:symbolic:contents;"
                    transient  Fri Sep 20 15:59:20  1991
--------------------------------------------------------------------------------
Index   time            a               b               out             
--------------------------------------------------------------------------------
0	0.000000e+00	1.000000e-01	0.000000e+00	4.867599e+00	
1	1.000000e-11	1.480000e-01	5.000000e-02	4.867577e+00	
2	2.000000e-11	1.960000e-01	1.000000e-01	4.867534e+00	
3	4.000000e-11	2.920000e-01	2.000000e-01	4.867410e+00	
4	8.000000e-11	4.840000e-01	4.000000e-01	4.866924e+00	
5	1.600000e-10	8.680000e-01	8.000000e-01	4.864982e+00	
6	3.200000e-10	1.636000e+00	1.600000e+00	4.819771e+00	
7	6.400000e-10	3.172000e+00	3.200000e+00	4.045771e+00	
8	1.098236e-09	4.900000e+00	5.000000e+00	1.377215e+00	
9	1.417430e-09	4.900000e+00	5.000000e+00	1.024592e-01	
10	1.521435e-09	4.900000e+00	5.000000e+00	5.183499e-02	
11	1.578283e-09	4.900000e+00	5.000000e+00	3.600277e-02	
12	1.654421e-09	4.900000e+00	5.000000e+00	2.197841e-02	
13	1.806698e-09	4.900000e+00	5.000000e+00	7.627046e-03	
14	1.975563e-09	4.900000e+00	5.000000e+00	2.284477e-03	
15	2.213869e-09	4.900000e+00	5.000000e+00	3.124640e-04	
16	2.500067e-09	4.900000e+00	5.000000e+00	1.411338e-05	
17	3.016578e-09	4.900000e+00	5.000000e+00	-3.781308e-06	
18	3.895125e-09	4.900000e+00	5.000000e+00	1.773032e-06	
19	5.652220e-09	4.900000e+00	5.000000e+00	-1.229217e-06	
20	7.652220e-09	4.900000e+00	5.000000e+00	9.026632e-07	
21	9.652220e-09	4.900000e+00	5.000000e+00	-6.510251e-07	
22	1.165222e-08	4.900000e+00	5.000000e+00	4.813004e-07	
23	1.365222e-08	4.900000e+00	5.000000e+00	-3.439339e-07	
24	1.565222e-08	4.900000e+00	5.000000e+00	2.574948e-07	
25	1.765222e-08	4.900000e+00	5.000000e+00	-1.808242e-07	
26	1.965222e-08	4.900000e+00	5.000000e+00	1.386214e-07	
27	2.165222e-08	4.900000e+00	5.000000e+00	-9.418949e-08	
28	2.365222e-08	4.900000e+00	5.000000e+00	7.548241e-08	
29	2.565222e-08	4.900000e+00	5.000000e+00	-4.817392e-08	
30	2.701137e-08	4.900000e+00	0.000000e+00	5.992408e-02	
31	2.777143e-08	4.900000e+00	0.000000e+00	4.251876e-02	
32	2.812903e-08	4.900000e+00	0.000000e+00	1.185783e-02	
33	2.843132e-08	4.900000e+00	0.000000e+00	4.186294e-03	
34	2.877176e-08	4.900000e+00	0.000000e+00	1.252966e-03	
35	2.923616e-08	4.900000e+00	0.000000e+00	1.889824e-04	
36	3.002867e-08	4.900000e+00	0.000000e+00	-2.211400e-05	
37	3.127302e-08	4.900000e+00	0.000000e+00	7.019723e-06	
38	3.327302e-08	4.900000e+00	0.000000e+00	-3.650857e-06	
39	3.527302e-08	4.900000e+00	0.000000e+00	1.910475e-06	
40	3.727302e-08	4.900000e+00	0.000000e+00	-9.815106e-07	
41	3.927302e-08	4.900000e+00	0.000000e+00	5.225456e-07	
42	4.127302e-08	4.900000e+00	0.000000e+00	-2.596626e-07	
43	4.327302e-08	4.900000e+00	0.000000e+00	1.471419e-07	
44	4.527302e-08	4.900000e+00	0.000000e+00	-6.442443e-08	
45	4.727302e-08	4.900000e+00	0.000000e+00	4.560494e-08	
46	4.927302e-08	4.900000e+00	0.000000e+00	-1.161798e-08	
47	5.127302e-08	3.589505e+00	5.000000e+00	1.183944e-08	
48	5.327302e-08	1.000000e-01	5.000000e+00	-2.123506e-08	
49	5.375655e-08	1.000000e-01	5.000000e+00	-7.743316e-09	
50	5.422290e-08	1.000000e-01	5.000000e+00	5.620024e-09	
51	5.466851e-08	1.000000e-01	5.000000e+00	7.426114e-09	
52	5.555973e-08	1.000000e-01	5.000000e+00	7.835728e-09	
53	5.734216e-08	1.000000e-01	5.000000e+00	7.741948e-09	
54	5.934216e-08	1.000000e-01	5.000000e+00	7.788833e-09	

Index   time            a               b               out             
--------------------------------------------------------------------------------
55	6.134216e-08	1.000000e-01	5.000000e+00	7.764045e-09	
56	6.334216e-08	1.000000e-01	5.000000e+00	7.777150e-09	
57	6.534216e-08	1.000000e-01	5.000000e+00	7.770221e-09	
58	6.734216e-08	1.000000e-01	5.000000e+00	7.773885e-09	
59	6.934216e-08	1.000000e-01	5.000000e+00	7.771948e-09	
60	7.134216e-08	1.000000e-01	5.000000e+00	7.772972e-09	
61	7.334216e-08	1.000000e-01	5.000000e+00	7.772430e-09	
62	7.534216e-08	1.000000e-01	5.000000e+00	7.772717e-09	
63	7.734216e-08	1.000000e-01	0.000000e+00	2.394153e+00	
64	7.868936e-08	1.000000e-01	0.000000e+00	4.375560e+00	
65	7.990334e-08	1.000000e-01	0.000000e+00	4.800871e+00	
66	8.142290e-08	1.000000e-01	0.000000e+00	4.868398e+00	
67	8.325956e-08	1.000000e-01	0.000000e+00	4.866804e+00	
68	8.525956e-08	1.000000e-01	0.000000e+00	4.868293e+00	
69	8.725956e-08	1.000000e-01	0.000000e+00	4.866866e+00	
70	8.925956e-08	1.000000e-01	0.000000e+00	4.868281e+00	
71	9.125956e-08	1.000000e-01	0.000000e+00	4.866892e+00	
72	9.325956e-08	1.000000e-01	0.000000e+00	4.868247e+00	
73	9.525956e-08	1.000000e-01	0.000000e+00	4.866923e+00	
74	9.725956e-08	1.000000e-01	0.000000e+00	4.868214e+00	
75	9.925956e-08	1.000000e-01	0.000000e+00	4.866952e+00	
76	1.000000e-07	1.000000e-01	0.000000e+00	4.868163e+00	



Total run time: 0.831 seconds.

Current data size = 376832,
Data limits: hard = 100663296, soft = 100663296.

